
T0E18 000:887 SEGGER J-Link V6.30 Log File (0000ms, 0003ms total)
T0E18 000:887 DLL Compiled: Jan 30 2018 18:44:37 (0000ms, 0003ms total)
T0E18 000:887 Logging started @ 2020-01-03 10:53 (0000ms, 0003ms total)
T0E18 000:887 JLINK_SetWarnOutHandler(...) (0000ms, 0003ms total)
T0E18 000:887 JLINK_OpenEx(...)
Firmware: J-Link OB-STM32F072-CortexM compiled May  4 2017 14:44:00
Hardware: V1.00
TELNET listener socket opened on port 19021WEBSRV 
Starting webserver (0024ms, 0027ms total)
T0E18 000:887 WEBSRV Webserver running on local port 19080 (0024ms, 0027ms total)
T0E18 000:887   returns O.K. (0024ms, 0027ms total)
T0E18 000:911 JLINK_GetEmuCaps()  returns 0xB8EA5A33 (0000ms, 0027ms total)
T0E18 000:911 JLINK_TIF_GetAvailable(...) (0000ms, 0027ms total)
T0E18 000:911 JLINK_SetErrorOutHandler(...) (0001ms, 0028ms total)
T0E18 000:912 JLINK_ExecCommand("ProjectFile = "E:\LEO_Printer\MyWork\Software Files\BiSun_BootLoader_V0.0.1\MDK-ARM\JLinkSettings.ini"", ...).   returns 0x00 (0097ms, 0125ms total)
T0E18 001:011 JLINK_ExecCommand("Device = STM32F103RE", ...). Device "STM32F103RE" selected.  returns 0x00 (0003ms, 0128ms total)
T0E18 001:014 JLINK_ExecCommand("DisableConnectionTimeout", ...).   returns 0x01 (0000ms, 0128ms total)
T0E18 001:014 JLINK_GetHardwareVersion()  returns 0x2710 (0000ms, 0128ms total)
T0E18 001:014 JLINK_GetDLLVersion()  returns 63000 (0000ms, 0128ms total)
T0E18 001:014 JLINK_GetFirmwareString(...) (0000ms, 0128ms total)
T0E18 001:016 JLINK_GetDLLVersion()  returns 63000 (0000ms, 0128ms total)
T0E18 001:016 JLINK_GetCompileDateTime() (0000ms, 0128ms total)
T0E18 001:017 JLINK_GetFirmwareString(...) (0000ms, 0128ms total)
T0E18 001:018 JLINK_GetHardwareVersion()  returns 0x2710 (0000ms, 0128ms total)
T0E18 001:034 JLINK_TIF_Select(JLINKARM_TIF_SWD)  returns 0x00 (0003ms, 0131ms total)
T0E18 001:037 JLINK_SetSpeed(5000) (0001ms, 0132ms total)
T0E18 001:038 JLINK_GetId() >0x10B TIF>Found SW-DP with ID 0x1BA01477 >0x0D TIF> >0x28 TIF> >0x0D TIF> >0x28 TIF> >0x0D TIF> >0x28 TIF> >0x0D TIF> >0x28 TIF> >0x0D TIF> >0x21 TIF> >0x0D TIF> >0x28 TIF> >0x0D TIF> >0x28 TIF> >0x0D TIF> >0x28 TIF> >0x0D TIF> >0x21 TIF> >0x0D TIF> >0x21 TIF> >0x0D TIF> >0x28 TIF> >0x0D TIF> >0x21 TIF> >0x0D TIF> >0x21 TIF> >0x0D TIF> >0x28 TIF> >0x0D TIF> >0x28 TIF> >0x0D TIF> >0x28 TIF> >0x0D TIF> >0x21 TIF> >0x0D TIF> >0x21 TIF> >0x0D TIF> >0x28 TIF> >0x0D TIF> >0x21 TIF>
 >0x0D TIF> >0x21 TIF> >0x0D TIF> >0x28 TIF> >0x0D TIF> >0x21 TIF> >0x0D TIF> >0x21 TIF> >0x0D TIF> >0x28 TIF> >0x0D TIF> >0x21 TIF> >0x0D TIF> >0x21 TIF> >0x0D TIF> >0x28 TIF> >0x0D TIF> >0x21 TIF> >0x0D TIF> >0x21 TIF> >0x10B TIF>Found SW-DP with ID 0x1BA01477 >0x0D TIF> >0x28 TIF> >0x0D TIF> >0x28 TIF> >0x0D TIF> >0x28 TIF> >0x0D TIF> >0x28 TIF> >0x0D TIF> >0x21 TIF> >0x0D TIF> >0x28 TIF>Scanning AP map to find all available APs >0x0D TIF> >0x28 TIF> >0x0D TIF> >0x21 TIF> >0x0D TIF> >0x21 TIF>
 >0x0D TIF> >0x28 TIF> >0x0D TIF> >0x21 TIF> >0x0D TIF> >0x21 TIF>AP[1]: Stopped AP scan as end of AP map has been reachedAP[0]: AHB-AP (IDR: 0x14770011)Iterating through AP map to find AHB-AP to use >0x42 TIF> >0x28 TIF> >0x0D TIF> >0x28 TIF> >0x0D TIF> >0x21 TIF> >0x0D TIF> >0x21 TIF> >0x42 TIF> >0x28 TIF> >0x0D TIF> >0x28 TIF> >0x0D TIF> >0x28 TIF> >0x0D TIF> >0x21 TIF> >0x0D TIF> >0x21 TIF>AP[0]: Core foundAP[0]: AHB-AP ROM base: 0xE00FF000 >0x0D TIF> >0x28 TIF> >0x0D TIF> >0x28 TIF> >0x0D TIF>
 >0x28 TIF> >0x0D TIF> >0x21 TIF> >0x0D TIF> >0x21 TIF>CPUID register: 0x411FC231. Implementer code: 0x41 (ARM)Found Cortex-M3 r1p1, Little endian. -- CPU_ReadMem(4 bytes @ 0xE000EDF0) -- CPU_WriteMem(4 bytes @ 0xE000EDF0) -- CPU_ReadMem(4 bytes @ 0xE0002000)FPUnit: 6 code (BP) slots and 2 literal slots -- CPU_ReadMem(4 bytes @ 0xE000EDFC) -- CPU_WriteMem(4 bytes @ 0xE000EDFC) -- CPU_ReadMem(4 bytes @ 0xE0001000) -- CPU_WriteMem(4 bytes @ 0xE0001000) -- CPU_ReadMem(4 bytes @ 0xE000ED88)
 -- CPU_WriteMem(4 bytes @ 0xE000ED88) -- CPU_ReadMem(4 bytes @ 0xE000ED88) -- CPU_WriteMem(4 bytes @ 0xE000ED88)CoreSight components:ROMTbl[0] @ E00FF000 -- CPU_ReadMem(16 bytes @ 0xE00FF000) -- CPU_ReadMem(16 bytes @ 0xE000EFF0) -- CPU_ReadMem(16 bytes @ 0xE000EFE0)ROMTbl[0][0]: E000E000, CID: B105E00D, PID: 001BB000 SCS -- CPU_ReadMem(16 bytes @ 0xE0001FF0) -- CPU_ReadMem(16 bytes @ 0xE0001FE0)ROMTbl[0][1]: E0001000, CID: B105E00D, PID: 001BB002 DWT -- CPU_ReadMem(16 bytes @ 0xE0002FF0)
 -- CPU_ReadMem(16 bytes @ 0xE0002FE0)ROMTbl[0][2]: E0002000, CID: B105E00D, PID: 000BB003 FPB -- CPU_ReadMem(16 bytes @ 0xE0000FF0) -- CPU_ReadMem(16 bytes @ 0xE0000FE0)ROMTbl[0][3]: E0000000, CID: B105E00D, PID: 001BB001 ITM -- CPU_ReadMem(16 bytes @ 0xE00FF010) -- CPU_ReadMem(16 bytes @ 0xE0040FF0) -- CPU_ReadMem(16 bytes @ 0xE0040FE0)ROMTbl[0][4]: E0040000, CID: B105900D, PID: 001BB923 TPIU-Lite -- CPU_ReadMem(16 bytes @ 0xE0041FF0) -- CPU_ReadMem(16 bytes @ 0xE0041FE0)
ROMTbl[0][5]: E0041000, CID: B105900D, PID: 101BB924 ETM-M3 >0x0D TIF> >0x21 TIF>  returns 0x1BA01477 (0300ms, 0432ms total)
T0E18 001:338 JLINK_GetDLLVersion()  returns 63000 (0000ms, 0432ms total)
T0E18 001:338 JLINK_CORE_GetFound()  returns 0x30000FF (0000ms, 0432ms total)
T0E18 001:338 JLINK_GetDebugInfo(0x100 = JLINKARM_ROM_TABLE_ADDR_INDEX) -- Value=0xE00FF000  returns 0x00 (0000ms, 0432ms total)
T0E18 001:342 JLINK_GetDebugInfo(0x100 = JLINKARM_ROM_TABLE_ADDR_INDEX) -- Value=0xE00FF000  returns 0x00 (0000ms, 0432ms total)
T0E18 001:342 JLINK_GetDebugInfo(0x101 = JLINKARM_DEBUG_INFO_ETM_ADDR_INDEX) -- Value=0xE0041000  returns 0x00 (0000ms, 0432ms total)
T0E18 001:342 JLINK_ReadMemEx(0xE0041FD0, 0x0020 Bytes, ..., Flags = 0x02000004) -- CPU_ReadMem(32 bytes @ 0xE0041FD0) - Data: 04 00 00 00 00 00 00 00 00 00 00 00 00 00 00 00 ...  returns 0x20 (0001ms, 0433ms total)
T0E18 001:343 JLINK_GetDebugInfo(0x102 = JLINKARM_DEBUG_INFO_MTB_ADDR_INDEX) -- Value=0x00000000  returns 0x00 (0000ms, 0433ms total)
T0E18 001:343 JLINK_GetDebugInfo(0x103 = JLINKARM_DEBUG_INFO_TPIU_ADDR_INDEX) -- Value=0xE0040000  returns 0x00 (0000ms, 0433ms total)
T0E18 001:343 JLINK_GetDebugInfo(0x104 = JLINKARM_DEBUG_INFO_ITM_ADDR_INDEX) -- Value=0xE0000000  returns 0x00 (0000ms, 0433ms total)
T0E18 001:343 JLINK_GetDebugInfo(0x105 = JLINKARM_DEBUG_INFO_DWT_ADDR_INDEX) -- Value=0xE0001000  returns 0x00 (0000ms, 0433ms total)
T0E18 001:343 JLINK_GetDebugInfo(0x106 = JLINKARM_DEBUG_INFO_FPB_ADDR_INDEX) -- Value=0xE0002000  returns 0x00 (0000ms, 0433ms total)
T0E18 001:343 JLINK_GetDebugInfo(0x107 = JLINKARM_DEBUG_INFO_NVIC_ADDR_INDEX) -- Value=0xE000E000  returns 0x00 (0000ms, 0433ms total)
T0E18 001:343 JLINK_GetDebugInfo(0x10C = JLINKARM_DEBUG_INFO_DBG_ADDR_INDEX) -- Value=0xE000EDF0  returns 0x00 (0000ms, 0433ms total)
T0E18 001:343 JLINK_GetDebugInfo(0x01 = Unknown) -- Value=0x00000000  returns 0x00 (0000ms, 0433ms total)
T0E18 001:343 JLINK_ReadMemU32(0xE000ED00, 0x0001 Items, ...) -- CPU_ReadMem(4 bytes @ 0xE000ED00) - Data: 31 C2 1F 41  returns 0x01 (0001ms, 0434ms total)
T0E18 001:344 JLINK_GetDebugInfo(0x10F = JLINKARM_DEBUG_INFO_HAS_CORTEX_M_SECURITY_EXT_INDEX) -- Value=0x00000000  returns 0x00 (0000ms, 0434ms total)
T0E18 001:344 JLINK_SetResetType(JLINKARM_CM3_RESET_TYPE_NORMAL)  returns JLINKARM_CM3_RESET_TYPE_NORMAL (0000ms, 0434ms total)
T0E18 001:344 JLINK_Reset() -- CPU is running -- CPU_WriteMem(4 bytes @ 0xE000EDF0) -- CPU is running -- CPU_WriteMem(4 bytes @ 0xE000EDFC)Reset: Halt core after reset via DEMCR.VC_CORERESET. >0x35 TIF>Reset: Reset device via AIRCR.SYSRESETREQ. -- CPU is running -- CPU_WriteMem(4 bytes @ 0xE000ED0C) >0x0D TIF> >0x28 TIF> -- CPU_ReadMem(4 bytes @ 0xE000EDF0) -- CPU_ReadMem(4 bytes @ 0xE000EDF0) -- CPU is running -- CPU_WriteMem(4 bytes @ 0xE000EDF0) -- CPU is running -- CPU_WriteMem(4 bytes @ 0xE000EDFC)
 -- CPU_ReadMem(4 bytes @ 0xE000EDF0) -- CPU_WriteMem(4 bytes @ 0xE0002000) -- CPU_ReadMem(4 bytes @ 0xE000EDFC) -- CPU_ReadMem(4 bytes @ 0xE0001000) (0078ms, 0512ms total)
T0E18 001:422 JLINK_Halt()  returns 0x00 (0000ms, 0512ms total)
T0E18 001:422 JLINK_ReadMemU32(0xE000EDF0, 0x0001 Items, ...) -- CPU_ReadMem(4 bytes @ 0xE000EDF0) - Data: 03 00 03 00  returns 0x01 (0001ms, 0513ms total)
T0E18 001:423 JLINK_WriteU32(0xE000EDF0, 0xA05F0003) -- CPU_WriteMem(4 bytes @ 0xE000EDF0)  returns 0x00 (0001ms, 0514ms total)
T0E18 001:424 JLINK_WriteU32(0xE000EDFC, 0x01000000) -- CPU_WriteMem(4 bytes @ 0xE000EDFC)  returns 0x00 (0001ms, 0515ms total)
T0E18 001:433 JLINK_GetHWStatus(...)  returns 0x00 (0001ms, 0516ms total)
T0E18 001:440 JLINK_GetNumBPUnits(Type = 0xFFFFFF00)  returns 0x06 (0000ms, 0516ms total)
T0E18 001:441 JLINK_GetNumBPUnits(Type = 0xF0)  returns 0x2000 (0000ms, 0516ms total)
T0E18 001:441 JLINK_GetNumWPUnits()  returns 0x04 (0000ms, 0516ms total)
T0E18 001:448 JLINK_GetSpeed()  returns 0x7D0 (0000ms, 0516ms total)
T0E18 001:452 JLINK_ReadMemU32(0xE000E004, 0x0001 Items, ...) -- CPU_ReadMem(4 bytes @ 0xE000E004) - Data: 01 00 00 00  returns 0x01 (0001ms, 0517ms total)
T0E18 001:453 JLINK_ReadMemU32(0xE000E004, 0x0001 Items, ...) -- CPU_ReadMem(4 bytes @ 0xE000E004) - Data: 01 00 00 00  returns 0x01 (0001ms, 0518ms total)
T0E18 001:454 JLINK_WriteMemEx(0xE0001000, 0x001C Bytes, ..., Flags = 0x02000004) - Data: 01 00 00 00 00 00 00 00 00 00 00 00 00 00 00 00 ... -- CPU_WriteMem(28 bytes @ 0xE0001000)  returns 0x1C (0001ms, 0519ms total)
T0E18 001:455 JLINK_Halt()  returns 0x00 (0000ms, 0519ms total)
T0E18 001:455 JLINK_IsHalted()  returns TRUE (0000ms, 0519ms total)
T0E18 001:458 JLINK_WriteMem(0x20000000, 0x0164 Bytes, ...) - Data: 00 BE 0A E0 0D 78 2D 06 68 40 08 24 40 00 00 D3 ... -- CPU_WriteMem(356 bytes @ 0x20000000)  returns 0x164 (0004ms, 0523ms total)
T0E18 001:462 JLINK_WriteReg(R0, 0x08000000)  returns 0x00 (0000ms, 0523ms total)
T0E18 001:462 JLINK_WriteReg(R1, 0x044AA200)  returns 0x00 (0000ms, 0523ms total)
T0E18 001:462 JLINK_WriteReg(R2, 0x00000001)  returns 0x00 (0000ms, 0523ms total)
T0E18 001:462 JLINK_WriteReg(R3, 0x00000000)  returns 0x00 (0000ms, 0523ms total)
T0E18 001:462 JLINK_WriteReg(R4, 0x00000000)  returns 0x00 (0000ms, 0523ms total)
T0E18 001:462 JLINK_WriteReg(R5, 0x00000000)  returns 0x00 (0000ms, 0523ms total)
T0E18 001:462 JLINK_WriteReg(R6, 0x00000000)  returns 0x00 (0000ms, 0523ms total)
T0E18 001:462 JLINK_WriteReg(R7, 0x00000000)  returns 0x00 (0000ms, 0523ms total)
T0E18 001:462 JLINK_WriteReg(R8, 0x00000000)  returns 0x00 (0000ms, 0523ms total)
T0E18 001:462 JLINK_WriteReg(R9, 0x20000160)  returns 0x00 (0000ms, 0523ms total)
T0E18 001:462 JLINK_WriteReg(R10, 0x00000000)  returns 0x00 (0000ms, 0523ms total)
T0E18 001:462 JLINK_WriteReg(R11, 0x00000000)  returns 0x00 (0000ms, 0523ms total)
T0E18 001:462 JLINK_WriteReg(R12, 0x00000000)  returns 0x00 (0000ms, 0523ms total)
T0E18 001:462 JLINK_WriteReg(R13 (SP), 0x20001000)  returns 0x00 (0000ms, 0523ms total)
T0E18 001:462 JLINK_WriteReg(R14, 0x20000001)  returns 0x00 (0000ms, 0523ms total)
T0E18 001:462 JLINK_WriteReg(R15 (PC), 0x20000038)  returns 0x00 (0000ms, 0523ms total)
T0E18 001:462 JLINK_WriteReg(XPSR, 0x01000000)  returns 0x00 (0000ms, 0523ms total)
T0E18 001:462 JLINK_WriteReg(MSP, 0x20001000)  returns 0x00 (0000ms, 0523ms total)
T0E18 001:462 JLINK_WriteReg(PSP, 0x20001000)  returns 0x00 (0000ms, 0523ms total)
T0E18 001:462 JLINK_WriteReg(CFBP, 0x00000000)  returns 0x00 (0000ms, 0523ms total)
T0E18 001:462 JLINK_SetBPEx(Addr = 0x20000000, Type = 0xFFFFFFF2) -- CPU_ReadMem(2 bytes @ 0x20000000)  returns 0x00000001 (0001ms, 0524ms total)
T0E18 001:463 JLINK_Go() -- CPU_WriteMem(2 bytes @ 0x20000000) -- CPU_ReadMem(4 bytes @ 0xE0001000) -- CPU_WriteMem(4 bytes @ 0xE0002008) -- CPU_WriteMem(4 bytes @ 0xE000200C) -- CPU_WriteMem(4 bytes @ 0xE0002010) -- CPU_WriteMem(4 bytes @ 0xE0002014) -- CPU_WriteMem(4 bytes @ 0xE0002018) -- CPU_WriteMem(4 bytes @ 0xE000201C) -- CPU_WriteMem(4 bytes @ 0xE0001004) (0009ms, 0533ms total)
T0E18 001:472 JLINK_IsHalted() -- CPU_ReadMem(2 bytes @ 0x20000000)  returns TRUE (0006ms, 0539ms total)
T0E18 001:478 JLINK_ReadReg(R15 (PC))  returns 0x20000000 (0000ms, 0533ms total)
T0E18 001:478 JLINK_ClrBPEx(BPHandle = 0x00000001)  returns 0x00 (0000ms, 0533ms total)
T0E18 001:478 JLINK_ReadReg(R0)  returns 0x00000000 (0000ms, 0533ms total)
T0E18 001:479 JLINK_WriteReg(R0, 0x08000000)  returns 0x00 (0000ms, 0533ms total)
T0E18 001:479 JLINK_WriteReg(R1, 0x044AA200)  returns 0x00 (0000ms, 0533ms total)
T0E18 001:479 JLINK_WriteReg(R2, 0x00000001)  returns 0x00 (0000ms, 0533ms total)
T0E18 001:479 JLINK_WriteReg(R3, 0x00000000)  returns 0x00 (0000ms, 0533ms total)
T0E18 001:479 JLINK_WriteReg(R4, 0x00000000)  returns 0x00 (0000ms, 0533ms total)
T0E18 001:479 JLINK_WriteReg(R5, 0x00000000)  returns 0x00 (0000ms, 0533ms total)
T0E18 001:479 JLINK_WriteReg(R6, 0x00000000)  returns 0x00 (0001ms, 0534ms total)
T0E18 001:480 JLINK_WriteReg(R7, 0x00000000)  returns 0x00 (0000ms, 0534ms total)
T0E18 001:480 JLINK_WriteReg(R8, 0x00000000)  returns 0x00 (0000ms, 0534ms total)
T0E18 001:480 JLINK_WriteReg(R9, 0x20000160)  returns 0x00 (0000ms, 0534ms total)
T0E18 001:480 JLINK_WriteReg(R10, 0x00000000)  returns 0x00 (0000ms, 0534ms total)
T0E18 001:480 JLINK_WriteReg(R11, 0x00000000)  returns 0x00 (0000ms, 0534ms total)
T0E18 001:480 JLINK_WriteReg(R12, 0x00000000)  returns 0x00 (0000ms, 0534ms total)
T0E18 001:480 JLINK_WriteReg(R13 (SP), 0x20001000)  returns 0x00 (0000ms, 0534ms total)
T0E18 001:480 JLINK_WriteReg(R14, 0x20000001)  returns 0x00 (0000ms, 0534ms total)
T0E18 001:480 JLINK_WriteReg(R15 (PC), 0x2000007C)  returns 0x00 (0000ms, 0534ms total)
T0E18 001:480 JLINK_WriteReg(XPSR, 0x01000000)  returns 0x00 (0000ms, 0534ms total)
T0E18 001:480 JLINK_WriteReg(MSP, 0x20001000)  returns 0x00 (0000ms, 0534ms total)
T0E18 001:480 JLINK_WriteReg(PSP, 0x20001000)  returns 0x00 (0000ms, 0534ms total)
T0E18 001:480 JLINK_WriteReg(CFBP, 0x00000000)  returns 0x00 (0000ms, 0534ms total)
T0E18 001:480 JLINK_SetBPEx(Addr = 0x20000000, Type = 0xFFFFFFF2)  returns 0x00000002 (0000ms, 0534ms total)
T0E18 001:480 JLINK_Go() -- CPU_ReadMem(4 bytes @ 0xE0001000) (0003ms, 0537ms total)
T0E18 001:483 JLINK_IsHalted()  returns FALSE (0001ms, 0538ms total)
T0E18 001:535 JLINK_IsHalted() -- CPU_ReadMem(2 bytes @ 0x20000000)  returns TRUE (0005ms, 0542ms total)
T0E18 001:540 JLINK_ReadReg(R15 (PC))  returns 0x20000000 (0000ms, 0537ms total)
T0E18 001:540 JLINK_ClrBPEx(BPHandle = 0x00000002)  returns 0x00 (0000ms, 0537ms total)
T0E18 001:540 JLINK_ReadReg(R0)  returns 0x00000000 (0000ms, 0537ms total)
T0E18 001:594 JLINK_WriteReg(R0, 0x00000001)  returns 0x00 (0000ms, 0537ms total)
T0E18 001:594 JLINK_WriteReg(R1, 0x044AA200)  returns 0x00 (0000ms, 0537ms total)
T0E18 001:594 JLINK_WriteReg(R2, 0x00000001)  returns 0x00 (0000ms, 0537ms total)
T0E18 001:594 JLINK_WriteReg(R3, 0x00000000)  returns 0x00 (0000ms, 0537ms total)
T0E18 001:594 JLINK_WriteReg(R4, 0x00000000)  returns 0x00 (0000ms, 0537ms total)
T0E18 001:594 JLINK_WriteReg(R5, 0x00000000)  returns 0x00 (0000ms, 0537ms total)
T0E18 001:594 JLINK_WriteReg(R6, 0x00000000)  returns 0x00 (0000ms, 0537ms total)
T0E18 001:594 JLINK_WriteReg(R7, 0x00000000)  returns 0x00 (0000ms, 0537ms total)
T0E18 001:594 JLINK_WriteReg(R8, 0x00000000)  returns 0x00 (0000ms, 0537ms total)
T0E18 001:594 JLINK_WriteReg(R9, 0x20000160)  returns 0x00 (0000ms, 0537ms total)
T0E18 001:594 JLINK_WriteReg(R10, 0x00000000)  returns 0x00 (0000ms, 0537ms total)
T0E18 001:594 JLINK_WriteReg(R11, 0x00000000)  returns 0x00 (0000ms, 0537ms total)
T0E18 001:594 JLINK_WriteReg(R12, 0x00000000)  returns 0x00 (0000ms, 0537ms total)
T0E18 001:594 JLINK_WriteReg(R13 (SP), 0x20001000)  returns 0x00 (0000ms, 0537ms total)
T0E18 001:594 JLINK_WriteReg(R14, 0x20000001)  returns 0x00 (0000ms, 0537ms total)
T0E18 001:594 JLINK_WriteReg(R15 (PC), 0x2000006A)  returns 0x00 (0000ms, 0537ms total)
T0E18 001:594 JLINK_WriteReg(XPSR, 0x01000000)  returns 0x00 (0000ms, 0537ms total)
T0E18 001:594 JLINK_WriteReg(MSP, 0x20001000)  returns 0x00 (0000ms, 0537ms total)
T0E18 001:594 JLINK_WriteReg(PSP, 0x20001000)  returns 0x00 (0000ms, 0537ms total)
T0E18 001:594 JLINK_WriteReg(CFBP, 0x00000000)  returns 0x00 (0000ms, 0537ms total)
T0E18 001:594 JLINK_SetBPEx(Addr = 0x20000000, Type = 0xFFFFFFF2)  returns 0x00000003 (0000ms, 0537ms total)
T0E18 001:594 JLINK_Go() -- CPU_ReadMem(4 bytes @ 0xE0001000) (0003ms, 0540ms total)
T0E18 001:598 JLINK_IsHalted() -- CPU_ReadMem(2 bytes @ 0x20000000)  returns TRUE (0006ms, 0547ms total)
T0E18 001:604 JLINK_ReadReg(R15 (PC))  returns 0x20000000 (0000ms, 0541ms total)
T0E18 001:604 JLINK_ClrBPEx(BPHandle = 0x00000003)  returns 0x00 (0000ms, 0541ms total)
T0E18 001:604 JLINK_ReadReg(R0)  returns 0x00000000 (0000ms, 0541ms total)
T0E18 001:610 JLINK_WriteMem(0x20000000, 0x0164 Bytes, ...) - Data: 00 BE 0A E0 0D 78 2D 06 68 40 08 24 40 00 00 D3 ... -- CPU_WriteMem(356 bytes @ 0x20000000)  returns 0x164 (0004ms, 0545ms total)
T0E18 001:614 JLINK_WriteReg(R0, 0x08000000)  returns 0x00 (0000ms, 0545ms total)
T0E18 001:614 JLINK_WriteReg(R1, 0x044AA200)  returns 0x00 (0000ms, 0545ms total)
T0E18 001:614 JLINK_WriteReg(R2, 0x00000002)  returns 0x00 (0000ms, 0545ms total)
T0E18 001:614 JLINK_WriteReg(R3, 0x00000000)  returns 0x00 (0000ms, 0545ms total)
T0E18 001:614 JLINK_WriteReg(R4, 0x00000000)  returns 0x00 (0000ms, 0545ms total)
T0E18 001:614 JLINK_WriteReg(R5, 0x00000000)  returns 0x00 (0000ms, 0545ms total)
T0E18 001:614 JLINK_WriteReg(R6, 0x00000000)  returns 0x00 (0000ms, 0545ms total)
T0E18 001:614 JLINK_WriteReg(R7, 0x00000000)  returns 0x00 (0000ms, 0545ms total)
T0E18 001:614 JLINK_WriteReg(R8, 0x00000000)  returns 0x00 (0000ms, 0545ms total)
T0E18 001:614 JLINK_WriteReg(R9, 0x20000160)  returns 0x00 (0000ms, 0545ms total)
T0E18 001:614 JLINK_WriteReg(R10, 0x00000000)  returns 0x00 (0000ms, 0545ms total)
T0E18 001:614 JLINK_WriteReg(R11, 0x00000000)  returns 0x00 (0000ms, 0545ms total)
T0E18 001:614 JLINK_WriteReg(R12, 0x00000000)  returns 0x00 (0000ms, 0545ms total)
T0E18 001:614 JLINK_WriteReg(R13 (SP), 0x20001000)  returns 0x00 (0000ms, 0545ms total)
T0E18 001:614 JLINK_WriteReg(R14, 0x20000001)  returns 0x00 (0000ms, 0545ms total)
T0E18 001:614 JLINK_WriteReg(R15 (PC), 0x20000038)  returns 0x00 (0000ms, 0545ms total)
T0E18 001:614 JLINK_WriteReg(XPSR, 0x01000000)  returns 0x00 (0000ms, 0545ms total)
T0E18 001:614 JLINK_WriteReg(MSP, 0x20001000)  returns 0x00 (0000ms, 0545ms total)
T0E18 001:614 JLINK_WriteReg(PSP, 0x20001000)  returns 0x00 (0000ms, 0545ms total)
T0E18 001:614 JLINK_WriteReg(CFBP, 0x00000000)  returns 0x00 (0000ms, 0545ms total)
T0E18 001:614 JLINK_SetBPEx(Addr = 0x20000000, Type = 0xFFFFFFF2) -- CPU_ReadMem(2 bytes @ 0x20000000)  returns 0x00000004 (0001ms, 0546ms total)
T0E18 001:615 JLINK_Go() -- CPU_WriteMem(2 bytes @ 0x20000000) -- CPU_ReadMem(4 bytes @ 0xE0001000) (0005ms, 0551ms total)
T0E18 001:620 JLINK_IsHalted() -- CPU_ReadMem(2 bytes @ 0x20000000)  returns TRUE (0005ms, 0556ms total)
T0E18 001:625 JLINK_ReadReg(R15 (PC))  returns 0x20000000 (0000ms, 0551ms total)
T0E18 001:625 JLINK_ClrBPEx(BPHandle = 0x00000004)  returns 0x00 (0000ms, 0551ms total)
T0E18 001:625 JLINK_ReadReg(R0)  returns 0x00000000 (0000ms, 0551ms total)
T0E18 001:626 JLINK_WriteMem(0x20000164, 0x029C Bytes, ...) - Data: A8 6A 00 20 15 02 00 08 75 43 00 08 89 38 00 08 ... -- CPU_WriteMem(668 bytes @ 0x20000164)  returns 0x29C (0007ms, 0558ms total)
T0E18 001:633 JLINK_WriteMem(0x20000400, 0x0164 Bytes, ...) - Data: 18 BF 64 1C 4F F0 00 08 4F F0 00 09 90 42 71 EB ... -- CPU_WriteMem(356 bytes @ 0x20000400)  returns 0x164 (0004ms, 0562ms total)
T0E18 001:637 JLINK_WriteReg(R0, 0x08000000)  returns 0x00 (0000ms, 0562ms total)
T0E18 001:637 JLINK_WriteReg(R1, 0x00000400)  returns 0x00 (0000ms, 0562ms total)
T0E18 001:637 JLINK_WriteReg(R2, 0x20000164)  returns 0x00 (0000ms, 0562ms total)
T0E18 001:637 JLINK_WriteReg(R3, 0x00000000)  returns 0x00 (0000ms, 0562ms total)
T0E18 001:637 JLINK_WriteReg(R4, 0x00000000)  returns 0x00 (0000ms, 0562ms total)
T0E18 001:637 JLINK_WriteReg(R5, 0x00000000)  returns 0x00 (0000ms, 0562ms total)
T0E18 001:637 JLINK_WriteReg(R6, 0x00000000)  returns 0x00 (0000ms, 0562ms total)
T0E18 001:637 JLINK_WriteReg(R7, 0x00000000)  returns 0x00 (0000ms, 0562ms total)
T0E18 001:637 JLINK_WriteReg(R8, 0x00000000)  returns 0x00 (0000ms, 0562ms total)
T0E18 001:637 JLINK_WriteReg(R9, 0x20000160)  returns 0x00 (0000ms, 0562ms total)
T0E18 001:637 JLINK_WriteReg(R10, 0x00000000)  returns 0x00 (0000ms, 0562ms total)
T0E18 001:637 JLINK_WriteReg(R11, 0x00000000)  returns 0x00 (0000ms, 0562ms total)
T0E18 001:637 JLINK_WriteReg(R12, 0x00000000)  returns 0x00 (0000ms, 0562ms total)
T0E18 001:637 JLINK_WriteReg(R13 (SP), 0x20001000)  returns 0x00 (0000ms, 0562ms total)
T0E18 001:637 JLINK_WriteReg(R14, 0x20000001)  returns 0x00 (0000ms, 0562ms total)
T0E18 001:637 JLINK_WriteReg(R15 (PC), 0x200000F4)  returns 0x00 (0000ms, 0562ms total)
T0E18 001:637 JLINK_WriteReg(XPSR, 0x01000000)  returns 0x00 (0000ms, 0562ms total)
T0E18 001:637 JLINK_WriteReg(MSP, 0x20001000)  returns 0x00 (0001ms, 0563ms total)
T0E18 001:638 JLINK_WriteReg(PSP, 0x20001000)  returns 0x00 (0000ms, 0563ms total)
T0E18 001:638 JLINK_WriteReg(CFBP, 0x00000000)  returns 0x00 (0000ms, 0563ms total)
T0E18 001:638 JLINK_SetBPEx(Addr = 0x20000000, Type = 0xFFFFFFF2)  returns 0x00000005 (0000ms, 0563ms total)
T0E18 001:638 JLINK_Go() -- CPU_ReadMem(4 bytes @ 0xE0001000) (0003ms, 0566ms total)
T0E18 001:641 JLINK_IsHalted()  returns FALSE (0001ms, 0567ms total)
T0E18 001:652 JLINK_IsHalted()  returns FALSE (0000ms, 0566ms total)
T0E18 001:654 JLINK_IsHalted()  returns FALSE (0000ms, 0566ms total)
T0E18 001:656 JLINK_IsHalted()  returns FALSE (0000ms, 0566ms total)
T0E18 001:658 JLINK_IsHalted()  returns FALSE (0000ms, 0566ms total)
T0E18 001:660 JLINK_IsHalted()  returns FALSE (0000ms, 0566ms total)
T0E18 001:662 JLINK_IsHalted()  returns FALSE (0000ms, 0566ms total)
T0E18 001:664 JLINK_IsHalted()  returns FALSE (0000ms, 0566ms total)
T0E18 001:666 JLINK_IsHalted()  returns FALSE (0000ms, 0566ms total)
T0E18 001:668 JLINK_IsHalted()  returns FALSE (0000ms, 0566ms total)
T0E18 001:670 JLINK_IsHalted()  returns FALSE (0000ms, 0566ms total)
T0E18 001:672 JLINK_IsHalted() -- CPU_ReadMem(2 bytes @ 0x20000000)  returns TRUE (0006ms, 0572ms total)
T0E18 001:678 JLINK_ReadReg(R15 (PC))  returns 0x20000000 (0000ms, 0566ms total)
T0E18 001:678 JLINK_ClrBPEx(BPHandle = 0x00000005)  returns 0x00 (0000ms, 0566ms total)
T0E18 001:678 JLINK_ReadReg(R0)  returns 0x00000000 (0000ms, 0566ms total)
T0E18 001:678 JLINK_WriteMem(0x20000164, 0x029C Bytes, ...) - Data: 13 A5 07 E0 31 68 8A 07 01 D5 12 A5 02 E0 49 07 ... -- CPU_WriteMem(668 bytes @ 0x20000164)  returns 0x29C (0007ms, 0573ms total)
T0E18 001:685 JLINK_WriteMem(0x20000400, 0x0164 Bytes, ...) - Data: BC F1 02 0F 62 44 98 BF 11 F8 01 CB 00 F8 01 3B ... -- CPU_WriteMem(356 bytes @ 0x20000400)  returns 0x164 (0005ms, 0578ms total)
T0E18 001:690 JLINK_WriteReg(R0, 0x08000400)  returns 0x00 (0000ms, 0578ms total)
T0E18 001:690 JLINK_WriteReg(R1, 0x00000400)  returns 0x00 (0000ms, 0578ms total)
T0E18 001:690 JLINK_WriteReg(R2, 0x20000164)  returns 0x00 (0000ms, 0578ms total)
T0E18 001:690 JLINK_WriteReg(R3, 0x00000000)  returns 0x00 (0000ms, 0578ms total)
T0E18 001:690 JLINK_WriteReg(R4, 0x00000000)  returns 0x00 (0000ms, 0578ms total)
T0E18 001:690 JLINK_WriteReg(R5, 0x00000000)  returns 0x00 (0000ms, 0578ms total)
T0E18 001:690 JLINK_WriteReg(R6, 0x00000000)  returns 0x00 (0000ms, 0578ms total)
T0E18 001:690 JLINK_WriteReg(R7, 0x00000000)  returns 0x00 (0000ms, 0578ms total)
T0E18 001:690 JLINK_WriteReg(R8, 0x00000000)  returns 0x00 (0000ms, 0578ms total)
T0E18 001:690 JLINK_WriteReg(R9, 0x20000160)  returns 0x00 (0000ms, 0578ms total)
T0E18 001:690 JLINK_WriteReg(R10, 0x00000000)  returns 0x00 (0000ms, 0578ms total)
T0E18 001:690 JLINK_WriteReg(R11, 0x00000000)  returns 0x00 (0000ms, 0578ms total)
T0E18 001:690 JLINK_WriteReg(R12, 0x00000000)  returns 0x00 (0000ms, 0578ms total)
T0E18 001:690 JLINK_WriteReg(R13 (SP), 0x20001000)  returns 0x00 (0000ms, 0578ms total)
T0E18 001:690 JLINK_WriteReg(R14, 0x20000001)  returns 0x00 (0000ms, 0578ms total)
T0E18 001:690 JLINK_WriteReg(R15 (PC), 0x200000F4)  returns 0x00 (0000ms, 0578ms total)
T0E18 001:690 JLINK_WriteReg(XPSR, 0x01000000)  returns 0x00 (0000ms, 0578ms total)
T0E18 001:690 JLINK_WriteReg(MSP, 0x20001000)  returns 0x00 (0000ms, 0578ms total)
T0E18 001:690 JLINK_WriteReg(PSP, 0x20001000)  returns 0x00 (0000ms, 0578ms total)
T0E18 001:690 JLINK_WriteReg(CFBP, 0x00000000)  returns 0x00 (0000ms, 0578ms total)
T0E18 001:690 JLINK_SetBPEx(Addr = 0x20000000, Type = 0xFFFFFFF2)  returns 0x00000006 (0000ms, 0578ms total)
T0E18 001:690 JLINK_Go() -- CPU_ReadMem(4 bytes @ 0xE0001000) (0004ms, 0582ms total)
T0E18 001:694 JLINK_IsHalted()  returns FALSE (0000ms, 0582ms total)
T0E18 001:698 JLINK_IsHalted()  returns FALSE (0000ms, 0582ms total)
T0E18 001:703 JLINK_IsHalted()  returns FALSE (0000ms, 0582ms total)
T0E18 001:705 JLINK_IsHalted()  returns FALSE (0000ms, 0582ms total)
T0E18 001:708 JLINK_IsHalted()  returns FALSE (0000ms, 0582ms total)
T0E18 001:710 JLINK_IsHalted()  returns FALSE (0000ms, 0582ms total)
T0E18 001:712 JLINK_IsHalted()  returns FALSE (0000ms, 0582ms total)
T0E18 001:714 JLINK_IsHalted()  returns FALSE (0000ms, 0582ms total)
T0E18 001:716 JLINK_IsHalted()  returns FALSE (0000ms, 0582ms total)
T0E18 001:721 JLINK_IsHalted()  returns FALSE (0000ms, 0582ms total)
T0E18 001:724 JLINK_IsHalted()  returns FALSE (0000ms, 0582ms total)
T0E18 001:726 JLINK_IsHalted() -- CPU_ReadMem(2 bytes @ 0x20000000)  returns TRUE (0005ms, 0587ms total)
T0E18 001:731 JLINK_ReadReg(R15 (PC))  returns 0x20000000 (0000ms, 0582ms total)
T0E18 001:731 JLINK_ClrBPEx(BPHandle = 0x00000006)  returns 0x00 (0000ms, 0582ms total)
T0E18 001:731 JLINK_ReadReg(R0)  returns 0x00000000 (0000ms, 0582ms total)
T0E18 001:732 JLINK_WriteMem(0x20000164, 0x029C Bytes, ...) - Data: 40 F8 04 2B 08 BF 70 47 48 BF 20 F8 02 2B 11 F0 ... -- CPU_WriteMem(668 bytes @ 0x20000164)  returns 0x29C (0007ms, 0590ms total)
T0E18 001:739 JLINK_WriteMem(0x20000400, 0x0164 Bytes, ...) - Data: 02 D2 0E 1A 32 44 02 E0 2E 1A 0E 44 32 44 01 46 ... -- CPU_WriteMem(356 bytes @ 0x20000400)  returns 0x164 (0005ms, 0595ms total)
T0E18 001:744 JLINK_WriteReg(R0, 0x08000800)  returns 0x00 (0000ms, 0595ms total)
T0E18 001:744 JLINK_WriteReg(R1, 0x00000400)  returns 0x00 (0000ms, 0595ms total)
T0E18 001:744 JLINK_WriteReg(R2, 0x20000164)  returns 0x00 (0000ms, 0595ms total)
T0E18 001:744 JLINK_WriteReg(R3, 0x00000000)  returns 0x00 (0000ms, 0595ms total)
T0E18 001:744 JLINK_WriteReg(R4, 0x00000000)  returns 0x00 (0000ms, 0595ms total)
T0E18 001:744 JLINK_WriteReg(R5, 0x00000000)  returns 0x00 (0000ms, 0595ms total)
T0E18 001:744 JLINK_WriteReg(R6, 0x00000000)  returns 0x00 (0000ms, 0595ms total)
T0E18 001:744 JLINK_WriteReg(R7, 0x00000000)  returns 0x00 (0000ms, 0595ms total)
T0E18 001:744 JLINK_WriteReg(R8, 0x00000000)  returns 0x00 (0000ms, 0595ms total)
T0E18 001:744 JLINK_WriteReg(R9, 0x20000160)  returns 0x00 (0000ms, 0595ms total)
T0E18 001:744 JLINK_WriteReg(R10, 0x00000000)  returns 0x00 (0000ms, 0595ms total)
T0E18 001:744 JLINK_WriteReg(R11, 0x00000000)  returns 0x00 (0000ms, 0595ms total)
T0E18 001:744 JLINK_WriteReg(R12, 0x00000000)  returns 0x00 (0000ms, 0595ms total)
T0E18 001:744 JLINK_WriteReg(R13 (SP), 0x20001000)  returns 0x00 (0000ms, 0595ms total)
T0E18 001:744 JLINK_WriteReg(R14, 0x20000001)  returns 0x00 (0000ms, 0595ms total)
T0E18 001:744 JLINK_WriteReg(R15 (PC), 0x200000F4)  returns 0x00 (0000ms, 0595ms total)
T0E18 001:744 JLINK_WriteReg(XPSR, 0x01000000)  returns 0x00 (0000ms, 0595ms total)
T0E18 001:744 JLINK_WriteReg(MSP, 0x20001000)  returns 0x00 (0000ms, 0595ms total)
T0E18 001:744 JLINK_WriteReg(PSP, 0x20001000)  returns 0x00 (0000ms, 0595ms total)
T0E18 001:744 JLINK_WriteReg(CFBP, 0x00000000)  returns 0x00 (0000ms, 0595ms total)
T0E18 001:744 JLINK_SetBPEx(Addr = 0x20000000, Type = 0xFFFFFFF2)  returns 0x00000007 (0000ms, 0595ms total)
T0E18 001:744 JLINK_Go() -- CPU_ReadMem(4 bytes @ 0xE0001000) (0003ms, 0598ms total)
T0E18 001:747 JLINK_IsHalted()  returns FALSE (0001ms, 0599ms total)
T0E18 001:752 JLINK_IsHalted()  returns FALSE (0000ms, 0598ms total)
T0E18 001:754 JLINK_IsHalted()  returns FALSE (0000ms, 0598ms total)
T0E18 001:756 JLINK_IsHalted()  returns FALSE (0000ms, 0598ms total)
T0E18 001:758 JLINK_IsHalted()  returns FALSE (0000ms, 0598ms total)
T0E18 001:760 JLINK_IsHalted()  returns FALSE (0000ms, 0598ms total)
T0E18 001:762 JLINK_IsHalted()  returns FALSE (0000ms, 0598ms total)
T0E18 001:767 JLINK_IsHalted()  returns FALSE (0000ms, 0598ms total)
T0E18 001:769 JLINK_IsHalted()  returns FALSE (0000ms, 0598ms total)
T0E18 001:771 JLINK_IsHalted()  returns FALSE (0000ms, 0598ms total)
T0E18 001:773 JLINK_IsHalted()  returns FALSE (0000ms, 0598ms total)
T0E18 001:775 JLINK_IsHalted()  returns FALSE (0000ms, 0598ms total)
T0E18 001:777 JLINK_IsHalted()  returns FALSE (0000ms, 0598ms total)
T0E18 001:779 JLINK_IsHalted() -- CPU_ReadMem(2 bytes @ 0x20000000)  returns TRUE (0005ms, 0603ms total)
T0E18 001:784 JLINK_ReadReg(R15 (PC))  returns 0x20000000 (0000ms, 0598ms total)
T0E18 001:784 JLINK_ClrBPEx(BPHandle = 0x00000007)  returns 0x00 (0000ms, 0598ms total)
T0E18 001:784 JLINK_ReadReg(R0)  returns 0x00000000 (0000ms, 0598ms total)
T0E18 001:785 JLINK_WriteMem(0x20000164, 0x029C Bytes, ...) - Data: 28 64 00 20 00 20 02 40 00 22 05 4B DA 61 05 4A ... -- CPU_WriteMem(668 bytes @ 0x20000164)  returns 0x29C (0007ms, 0605ms total)
T0E18 001:792 JLINK_WriteMem(0x20000400, 0x0164 Bytes, ...) - Data: 01 D1 08 20 49 E0 9D 4A 64 3A 08 68 90 42 01 D1 ... -- CPU_WriteMem(356 bytes @ 0x20000400)  returns 0x164 (0004ms, 0609ms total)
T0E18 001:796 JLINK_WriteReg(R0, 0x08000C00)  returns 0x00 (0000ms, 0609ms total)
T0E18 001:796 JLINK_WriteReg(R1, 0x00000400)  returns 0x00 (0000ms, 0609ms total)
T0E18 001:796 JLINK_WriteReg(R2, 0x20000164)  returns 0x00 (0000ms, 0609ms total)
T0E18 001:796 JLINK_WriteReg(R3, 0x00000000)  returns 0x00 (0000ms, 0609ms total)
T0E18 001:796 JLINK_WriteReg(R4, 0x00000000)  returns 0x00 (0000ms, 0609ms total)
T0E18 001:796 JLINK_WriteReg(R5, 0x00000000)  returns 0x00 (0000ms, 0609ms total)
T0E18 001:796 JLINK_WriteReg(R6, 0x00000000)  returns 0x00 (0000ms, 0609ms total)
T0E18 001:796 JLINK_WriteReg(R7, 0x00000000)  returns 0x00 (0000ms, 0609ms total)
T0E18 001:796 JLINK_WriteReg(R8, 0x00000000)  returns 0x00 (0000ms, 0609ms total)
T0E18 001:796 JLINK_WriteReg(R9, 0x20000160)  returns 0x00 (0000ms, 0609ms total)
T0E18 001:796 JLINK_WriteReg(R10, 0x00000000)  returns 0x00 (0000ms, 0609ms total)
T0E18 001:796 JLINK_WriteReg(R11, 0x00000000)  returns 0x00 (0000ms, 0609ms total)
T0E18 001:796 JLINK_WriteReg(R12, 0x00000000)  returns 0x00 (0000ms, 0609ms total)
T0E18 001:796 JLINK_WriteReg(R13 (SP), 0x20001000)  returns 0x00 (0000ms, 0609ms total)
T0E18 001:796 JLINK_WriteReg(R14, 0x20000001)  returns 0x00 (0000ms, 0609ms total)
T0E18 001:796 JLINK_WriteReg(R15 (PC), 0x200000F4)  returns 0x00 (0000ms, 0609ms total)
T0E18 001:796 JLINK_WriteReg(XPSR, 0x01000000)  returns 0x00 (0000ms, 0609ms total)
T0E18 001:796 JLINK_WriteReg(MSP, 0x20001000)  returns 0x00 (0000ms, 0609ms total)
T0E18 001:796 JLINK_WriteReg(PSP, 0x20001000)  returns 0x00 (0000ms, 0609ms total)
T0E18 001:796 JLINK_WriteReg(CFBP, 0x00000000)  returns 0x00 (0000ms, 0609ms total)
T0E18 001:796 JLINK_SetBPEx(Addr = 0x20000000, Type = 0xFFFFFFF2)  returns 0x00000008 (0000ms, 0609ms total)
T0E18 001:796 JLINK_Go() -- CPU_ReadMem(4 bytes @ 0xE0001000) (0003ms, 0612ms total)
T0E18 001:799 JLINK_IsHalted()  returns FALSE (0001ms, 0613ms total)
T0E18 001:802 JLINK_IsHalted()  returns FALSE (0000ms, 0612ms total)
T0E18 001:804 JLINK_IsHalted()  returns FALSE (0000ms, 0612ms total)
T0E18 001:806 JLINK_IsHalted()  returns FALSE (0000ms, 0612ms total)
T0E18 001:808 JLINK_IsHalted()  returns FALSE (0000ms, 0612ms total)
T0E18 001:813 JLINK_IsHalted()  returns FALSE (0000ms, 0612ms total)
T0E18 001:815 JLINK_IsHalted()  returns FALSE (0000ms, 0612ms total)
T0E18 001:817 JLINK_IsHalted()  returns FALSE (0000ms, 0612ms total)
T0E18 001:819 JLINK_IsHalted()  returns FALSE (0000ms, 0612ms total)
T0E18 001:821 JLINK_IsHalted()  returns FALSE (0000ms, 0612ms total)
T0E18 001:823 JLINK_IsHalted()  returns FALSE (0000ms, 0612ms total)
T0E18 001:826 JLINK_IsHalted()  returns FALSE (0000ms, 0612ms total)
T0E18 001:828 JLINK_IsHalted()  returns FALSE (0000ms, 0612ms total)
T0E18 001:830 JLINK_IsHalted()  returns FALSE (0000ms, 0612ms total)
T0E18 001:832 JLINK_IsHalted() -- CPU_ReadMem(2 bytes @ 0x20000000)  returns TRUE (0005ms, 0617ms total)
T0E18 001:837 JLINK_ReadReg(R15 (PC))  returns 0x20000000 (0000ms, 0612ms total)
T0E18 001:837 JLINK_ClrBPEx(BPHandle = 0x00000008)  returns 0x00 (0000ms, 0612ms total)
T0E18 001:837 JLINK_ReadReg(R0)  returns 0x00000000 (0000ms, 0612ms total)
T0E18 001:839 JLINK_WriteMem(0x20000164, 0x029C Bytes, ...) - Data: 08 68 90 42 01 D1 40 20 42 E0 43 4A 50 3A 08 68 ... -- CPU_WriteMem(668 bytes @ 0x20000164)  returns 0x29C (0007ms, 0619ms total)
T0E18 001:846 JLINK_WriteMem(0x20000400, 0x0164 Bytes, ...) - Data: 80 21 10 E0 AA 4A 30 32 21 68 91 42 01 D1 C9 14 ... -- CPU_WriteMem(356 bytes @ 0x20000400)  returns 0x164 (0005ms, 0624ms total)
T0E18 001:851 JLINK_WriteReg(R0, 0x08001000)  returns 0x00 (0000ms, 0624ms total)
T0E18 001:851 JLINK_WriteReg(R1, 0x00000400)  returns 0x00 (0000ms, 0624ms total)
T0E18 001:851 JLINK_WriteReg(R2, 0x20000164)  returns 0x00 (0000ms, 0624ms total)
T0E18 001:851 JLINK_WriteReg(R3, 0x00000000)  returns 0x00 (0000ms, 0624ms total)
T0E18 001:851 JLINK_WriteReg(R4, 0x00000000)  returns 0x00 (0000ms, 0624ms total)
T0E18 001:851 JLINK_WriteReg(R5, 0x00000000)  returns 0x00 (0000ms, 0624ms total)
T0E18 001:851 JLINK_WriteReg(R6, 0x00000000)  returns 0x00 (0000ms, 0624ms total)
T0E18 001:851 JLINK_WriteReg(R7, 0x00000000)  returns 0x00 (0000ms, 0624ms total)
T0E18 001:851 JLINK_WriteReg(R8, 0x00000000)  returns 0x00 (0000ms, 0624ms total)
T0E18 001:851 JLINK_WriteReg(R9, 0x20000160)  returns 0x00 (0000ms, 0624ms total)
T0E18 001:851 JLINK_WriteReg(R10, 0x00000000)  returns 0x00 (0000ms, 0624ms total)
T0E18 001:851 JLINK_WriteReg(R11, 0x00000000)  returns 0x00 (0000ms, 0624ms total)
T0E18 001:851 JLINK_WriteReg(R12, 0x00000000)  returns 0x00 (0000ms, 0624ms total)
T0E18 001:851 JLINK_WriteReg(R13 (SP), 0x20001000)  returns 0x00 (0000ms, 0624ms total)
T0E18 001:851 JLINK_WriteReg(R14, 0x20000001)  returns 0x00 (0000ms, 0624ms total)
T0E18 001:851 JLINK_WriteReg(R15 (PC), 0x200000F4)  returns 0x00 (0000ms, 0624ms total)
T0E18 001:851 JLINK_WriteReg(XPSR, 0x01000000)  returns 0x00 (0000ms, 0624ms total)
T0E18 001:851 JLINK_WriteReg(MSP, 0x20001000)  returns 0x00 (0000ms, 0624ms total)
T0E18 001:851 JLINK_WriteReg(PSP, 0x20001000)  returns 0x00 (0000ms, 0624ms total)
T0E18 001:851 JLINK_WriteReg(CFBP, 0x00000000)  returns 0x00 (0000ms, 0624ms total)
T0E18 001:851 JLINK_SetBPEx(Addr = 0x20000000, Type = 0xFFFFFFF2)  returns 0x00000009 (0000ms, 0624ms total)
T0E18 001:851 JLINK_Go() -- CPU_ReadMem(4 bytes @ 0xE0001000) (0004ms, 0628ms total)
T0E18 001:855 JLINK_IsHalted()  returns FALSE (0000ms, 0628ms total)
T0E18 001:857 JLINK_IsHalted()  returns FALSE (0000ms, 0628ms total)
T0E18 001:859 JLINK_IsHalted()  returns FALSE (0000ms, 0628ms total)
T0E18 001:861 JLINK_IsHalted()  returns FALSE (0000ms, 0628ms total)
T0E18 001:863 JLINK_IsHalted()  returns FALSE (0000ms, 0628ms total)
T0E18 001:865 JLINK_IsHalted()  returns FALSE (0000ms, 0628ms total)
T0E18 001:867 JLINK_IsHalted()  returns FALSE (0000ms, 0628ms total)
T0E18 001:869 JLINK_IsHalted()  returns FALSE (0000ms, 0628ms total)
T0E18 001:871 JLINK_IsHalted()  returns FALSE (0000ms, 0628ms total)
T0E18 001:873 JLINK_IsHalted()  returns FALSE (0000ms, 0628ms total)
T0E18 001:875 JLINK_IsHalted()  returns FALSE (0000ms, 0628ms total)
T0E18 001:877 JLINK_IsHalted()  returns FALSE (0000ms, 0628ms total)
T0E18 001:879 JLINK_IsHalted()  returns FALSE (0000ms, 0628ms total)
T0E18 001:881 JLINK_IsHalted()  returns FALSE (0000ms, 0628ms total)
T0E18 001:883 JLINK_IsHalted()  returns FALSE (0000ms, 0628ms total)
T0E18 001:885 JLINK_IsHalted()  returns FALSE (0000ms, 0628ms total)
T0E18 001:887 JLINK_IsHalted() -- CPU_ReadMem(2 bytes @ 0x20000000)  returns TRUE (0005ms, 0633ms total)
T0E18 001:892 JLINK_ReadReg(R15 (PC))  returns 0x20000000 (0000ms, 0628ms total)
T0E18 001:892 JLINK_ClrBPEx(BPHandle = 0x00000009)  returns 0x00 (0000ms, 0628ms total)
T0E18 001:892 JLINK_ReadReg(R0)  returns 0x00000000 (0000ms, 0628ms total)
T0E18 001:893 JLINK_WriteMem(0x20000164, 0x029C Bytes, ...) - Data: 20 68 88 42 01 D1 08 20 17 E0 50 49 1C 31 20 68 ... -- CPU_WriteMem(668 bytes @ 0x20000164)  returns 0x29C (0008ms, 0636ms total)
T0E18 001:901 JLINK_WriteMem(0x20000400, 0x0164 Bytes, ...) - Data: 09 1F 08 60 53 E0 A3 49 3C 39 20 68 88 42 01 D1 ... -- CPU_WriteMem(356 bytes @ 0x20000400)  returns 0x164 (0004ms, 0640ms total)
T0E18 001:905 JLINK_WriteReg(R0, 0x08001400)  returns 0x00 (0000ms, 0640ms total)
T0E18 001:905 JLINK_WriteReg(R1, 0x00000400)  returns 0x00 (0000ms, 0640ms total)
T0E18 001:905 JLINK_WriteReg(R2, 0x20000164)  returns 0x00 (0000ms, 0640ms total)
T0E18 001:905 JLINK_WriteReg(R3, 0x00000000)  returns 0x00 (0000ms, 0640ms total)
T0E18 001:905 JLINK_WriteReg(R4, 0x00000000)  returns 0x00 (0000ms, 0640ms total)
T0E18 001:905 JLINK_WriteReg(R5, 0x00000000)  returns 0x00 (0000ms, 0640ms total)
T0E18 001:905 JLINK_WriteReg(R6, 0x00000000)  returns 0x00 (0000ms, 0640ms total)
T0E18 001:905 JLINK_WriteReg(R7, 0x00000000)  returns 0x00 (0000ms, 0640ms total)
T0E18 001:905 JLINK_WriteReg(R8, 0x00000000)  returns 0x00 (0000ms, 0640ms total)
T0E18 001:905 JLINK_WriteReg(R9, 0x20000160)  returns 0x00 (0000ms, 0640ms total)
T0E18 001:905 JLINK_WriteReg(R10, 0x00000000)  returns 0x00 (0000ms, 0640ms total)
T0E18 001:905 JLINK_WriteReg(R11, 0x00000000)  returns 0x00 (0000ms, 0640ms total)
T0E18 001:905 JLINK_WriteReg(R12, 0x00000000)  returns 0x00 (0000ms, 0640ms total)
T0E18 001:905 JLINK_WriteReg(R13 (SP), 0x20001000)  returns 0x00 (0000ms, 0640ms total)
T0E18 001:905 JLINK_WriteReg(R14, 0x20000001)  returns 0x00 (0000ms, 0640ms total)
T0E18 001:905 JLINK_WriteReg(R15 (PC), 0x200000F4)  returns 0x00 (0000ms, 0640ms total)
T0E18 001:905 JLINK_WriteReg(XPSR, 0x01000000)  returns 0x00 (0000ms, 0640ms total)
T0E18 001:905 JLINK_WriteReg(MSP, 0x20001000)  returns 0x00 (0000ms, 0640ms total)
T0E18 001:905 JLINK_WriteReg(PSP, 0x20001000)  returns 0x00 (0000ms, 0640ms total)
T0E18 001:905 JLINK_WriteReg(CFBP, 0x00000000)  returns 0x00 (0000ms, 0640ms total)
T0E18 001:905 JLINK_SetBPEx(Addr = 0x20000000, Type = 0xFFFFFFF2)  returns 0x0000000A (0000ms, 0640ms total)
T0E18 001:905 JLINK_Go() -- CPU_ReadMem(4 bytes @ 0xE0001000) (0004ms, 0644ms total)
T0E18 001:909 JLINK_IsHalted()  returns FALSE (0001ms, 0645ms total)
T0E18 001:912 JLINK_IsHalted()  returns FALSE (0000ms, 0644ms total)
T0E18 001:914 JLINK_IsHalted()  returns FALSE (0000ms, 0644ms total)
T0E18 001:916 JLINK_IsHalted()  returns FALSE (0000ms, 0644ms total)
T0E18 001:920 JLINK_IsHalted()  returns FALSE (0000ms, 0644ms total)
T0E18 001:922 JLINK_IsHalted()  returns FALSE (0000ms, 0644ms total)
T0E18 001:924 JLINK_IsHalted()  returns FALSE (0000ms, 0644ms total)
T0E18 001:926 JLINK_IsHalted()  returns FALSE (0000ms, 0644ms total)
T0E18 001:928 JLINK_IsHalted()  returns FALSE (0000ms, 0644ms total)
T0E18 001:930 JLINK_IsHalted()  returns FALSE (0000ms, 0644ms total)
T0E18 001:932 JLINK_IsHalted()  returns FALSE (0000ms, 0644ms total)
T0E18 001:934 JLINK_IsHalted()  returns FALSE (0000ms, 0644ms total)
T0E18 001:938 JLINK_IsHalted()  returns FALSE (0000ms, 0644ms total)
T0E18 001:940 JLINK_IsHalted() -- CPU_ReadMem(2 bytes @ 0x20000000)  returns TRUE (0005ms, 0649ms total)
T0E18 001:945 JLINK_ReadReg(R15 (PC))  returns 0x20000000 (0000ms, 0644ms total)
T0E18 001:945 JLINK_ClrBPEx(BPHandle = 0x0000000A)  returns 0x00 (0000ms, 0644ms total)
T0E18 001:945 JLINK_ReadReg(R0)  returns 0x00000000 (0000ms, 0644ms total)
T0E18 001:946 JLINK_WriteMem(0x20000164, 0x029C Bytes, ...) - Data: 02 D1 4F F4 00 51 01 E0 4F F4 00 31 08 40 54 E0 ... -- CPU_WriteMem(668 bytes @ 0x20000164)  returns 0x29C (0007ms, 0651ms total)
T0E18 001:953 JLINK_WriteMem(0x20000400, 0x0164 Bytes, ...) - Data: 4B 69 18 43 8B 69 18 43 CB 69 18 43 02 43 08 68 ... -- CPU_WriteMem(356 bytes @ 0x20000400)  returns 0x164 (0005ms, 0656ms total)
T0E18 001:958 JLINK_WriteReg(R0, 0x08001800)  returns 0x00 (0000ms, 0656ms total)
T0E18 001:958 JLINK_WriteReg(R1, 0x00000400)  returns 0x00 (0000ms, 0656ms total)
T0E18 001:958 JLINK_WriteReg(R2, 0x20000164)  returns 0x00 (0000ms, 0656ms total)
T0E18 001:958 JLINK_WriteReg(R3, 0x00000000)  returns 0x00 (0000ms, 0656ms total)
T0E18 001:958 JLINK_WriteReg(R4, 0x00000000)  returns 0x00 (0000ms, 0656ms total)
T0E18 001:958 JLINK_WriteReg(R5, 0x00000000)  returns 0x00 (0000ms, 0656ms total)
T0E18 001:958 JLINK_WriteReg(R6, 0x00000000)  returns 0x00 (0000ms, 0656ms total)
T0E18 001:958 JLINK_WriteReg(R7, 0x00000000)  returns 0x00 (0000ms, 0656ms total)
T0E18 001:958 JLINK_WriteReg(R8, 0x00000000)  returns 0x00 (0000ms, 0656ms total)
T0E18 001:958 JLINK_WriteReg(R9, 0x20000160)  returns 0x00 (0000ms, 0656ms total)
T0E18 001:958 JLINK_WriteReg(R10, 0x00000000)  returns 0x00 (0000ms, 0656ms total)
T0E18 001:958 JLINK_WriteReg(R11, 0x00000000)  returns 0x00 (0000ms, 0656ms total)
T0E18 001:958 JLINK_WriteReg(R12, 0x00000000)  returns 0x00 (0000ms, 0656ms total)
T0E18 001:958 JLINK_WriteReg(R13 (SP), 0x20001000)  returns 0x00 (0000ms, 0656ms total)
T0E18 001:958 JLINK_WriteReg(R14, 0x20000001)  returns 0x00 (0000ms, 0656ms total)
T0E18 001:958 JLINK_WriteReg(R15 (PC), 0x200000F4)  returns 0x00 (0000ms, 0656ms total)
T0E18 001:958 JLINK_WriteReg(XPSR, 0x01000000)  returns 0x00 (0000ms, 0656ms total)
T0E18 001:958 JLINK_WriteReg(MSP, 0x20001000)  returns 0x00 (0000ms, 0656ms total)
T0E18 001:958 JLINK_WriteReg(PSP, 0x20001000)  returns 0x00 (0000ms, 0656ms total)
T0E18 001:958 JLINK_WriteReg(CFBP, 0x00000000)  returns 0x00 (0000ms, 0656ms total)
T0E18 001:958 JLINK_SetBPEx(Addr = 0x20000000, Type = 0xFFFFFFF2)  returns 0x0000000B (0000ms, 0656ms total)
T0E18 001:958 JLINK_Go() -- CPU_ReadMem(4 bytes @ 0xE0001000) (0003ms, 0659ms total)
T0E18 001:961 JLINK_IsHalted()  returns FALSE (0001ms, 0660ms total)
T0E18 001:969 JLINK_IsHalted()  returns FALSE (0000ms, 0659ms total)
T0E18 001:971 JLINK_IsHalted()  returns FALSE (0000ms, 0659ms total)
T0E18 001:973 JLINK_IsHalted()  returns FALSE (0000ms, 0659ms total)
T0E18 001:975 JLINK_IsHalted()  returns FALSE (0000ms, 0659ms total)
T0E18 001:977 JLINK_IsHalted()  returns FALSE (0000ms, 0659ms total)
T0E18 001:979 JLINK_IsHalted()  returns FALSE (0000ms, 0659ms total)
T0E18 001:981 JLINK_IsHalted()  returns FALSE (0000ms, 0659ms total)
T0E18 001:983 JLINK_IsHalted()  returns FALSE (0000ms, 0659ms total)
T0E18 001:987 JLINK_IsHalted()  returns FALSE (0000ms, 0659ms total)
T0E18 001:989 JLINK_IsHalted()  returns FALSE (0000ms, 0659ms total)
T0E18 001:991 JLINK_IsHalted()  returns FALSE (0000ms, 0659ms total)
T0E18 001:993 JLINK_IsHalted() -- CPU_ReadMem(2 bytes @ 0x20000000)  returns TRUE (0005ms, 0664ms total)
T0E18 001:998 JLINK_ReadReg(R15 (PC))  returns 0x20000000 (0000ms, 0659ms total)
T0E18 001:998 JLINK_ClrBPEx(BPHandle = 0x0000000B)  returns 0x00 (0000ms, 0659ms total)
T0E18 001:998 JLINK_ReadReg(R0)  returns 0x00000000 (0000ms, 0659ms total)
T0E18 001:999 JLINK_WriteMem(0x20000164, 0x029C Bytes, ...) - Data: 40 F0 80 00 01 49 08 61 00 20 70 47 00 20 02 40 ... -- CPU_WriteMem(668 bytes @ 0x20000164)  returns 0x29C (0008ms, 0667ms total)
T0E18 002:007 JLINK_WriteMem(0x20000400, 0x0164 Bytes, ...) - Data: 7C 81 42 45 02 D1 4F F0 03 08 0F E0 DF F8 70 81 ... -- CPU_WriteMem(356 bytes @ 0x20000400)  returns 0x164 (0004ms, 0671ms total)
T0E18 002:011 JLINK_WriteReg(R0, 0x08001C00)  returns 0x00 (0000ms, 0671ms total)
T0E18 002:011 JLINK_WriteReg(R1, 0x00000400)  returns 0x00 (0000ms, 0671ms total)
T0E18 002:011 JLINK_WriteReg(R2, 0x20000164)  returns 0x00 (0000ms, 0671ms total)
T0E18 002:011 JLINK_WriteReg(R3, 0x00000000)  returns 0x00 (0000ms, 0671ms total)
T0E18 002:011 JLINK_WriteReg(R4, 0x00000000)  returns 0x00 (0000ms, 0671ms total)
T0E18 002:011 JLINK_WriteReg(R5, 0x00000000)  returns 0x00 (0000ms, 0671ms total)
T0E18 002:011 JLINK_WriteReg(R6, 0x00000000)  returns 0x00 (0000ms, 0671ms total)
T0E18 002:011 JLINK_WriteReg(R7, 0x00000000)  returns 0x00 (0000ms, 0671ms total)
T0E18 002:011 JLINK_WriteReg(R8, 0x00000000)  returns 0x00 (0000ms, 0671ms total)
T0E18 002:011 JLINK_WriteReg(R9, 0x20000160)  returns 0x00 (0000ms, 0671ms total)
T0E18 002:011 JLINK_WriteReg(R10, 0x00000000)  returns 0x00 (0000ms, 0671ms total)
T0E18 002:011 JLINK_WriteReg(R11, 0x00000000)  returns 0x00 (0000ms, 0671ms total)
T0E18 002:011 JLINK_WriteReg(R12, 0x00000000)  returns 0x00 (0000ms, 0671ms total)
T0E18 002:011 JLINK_WriteReg(R13 (SP), 0x20001000)  returns 0x00 (0000ms, 0671ms total)
T0E18 002:011 JLINK_WriteReg(R14, 0x20000001)  returns 0x00 (0000ms, 0671ms total)
T0E18 002:011 JLINK_WriteReg(R15 (PC), 0x200000F4)  returns 0x00 (0000ms, 0671ms total)
T0E18 002:011 JLINK_WriteReg(XPSR, 0x01000000)  returns 0x00 (0000ms, 0671ms total)
T0E18 002:011 JLINK_WriteReg(MSP, 0x20001000)  returns 0x00 (0000ms, 0671ms total)
T0E18 002:011 JLINK_WriteReg(PSP, 0x20001000)  returns 0x00 (0000ms, 0671ms total)
T0E18 002:011 JLINK_WriteReg(CFBP, 0x00000000)  returns 0x00 (0000ms, 0671ms total)
T0E18 002:011 JLINK_SetBPEx(Addr = 0x20000000, Type = 0xFFFFFFF2)  returns 0x0000000C (0000ms, 0671ms total)
T0E18 002:011 JLINK_Go() -- CPU_ReadMem(4 bytes @ 0xE0001000) (0004ms, 0675ms total)
T0E18 002:015 JLINK_IsHalted()  returns FALSE (0001ms, 0676ms total)
T0E18 002:018 JLINK_IsHalted()  returns FALSE (0000ms, 0675ms total)
T0E18 002:020 JLINK_IsHalted()  returns FALSE (0000ms, 0675ms total)
T0E18 002:022 JLINK_IsHalted()  returns FALSE (0000ms, 0675ms total)
T0E18 002:024 JLINK_IsHalted()  returns FALSE (0000ms, 0675ms total)
T0E18 002:026 JLINK_IsHalted()  returns FALSE (0000ms, 0675ms total)
T0E18 002:030 JLINK_IsHalted()  returns FALSE (0000ms, 0675ms total)
T0E18 002:032 JLINK_IsHalted()  returns FALSE (0000ms, 0675ms total)
T0E18 002:034 JLINK_IsHalted()  returns FALSE (0000ms, 0675ms total)
T0E18 002:036 JLINK_IsHalted()  returns FALSE (0000ms, 0675ms total)
T0E18 002:038 JLINK_IsHalted()  returns FALSE (0000ms, 0675ms total)
T0E18 002:040 JLINK_IsHalted()  returns FALSE (0000ms, 0675ms total)
T0E18 002:042 JLINK_IsHalted()  returns FALSE (0000ms, 0675ms total)
T0E18 002:046 JLINK_IsHalted() -- CPU_ReadMem(2 bytes @ 0x20000000)  returns TRUE (0005ms, 0680ms total)
T0E18 002:051 JLINK_ReadReg(R15 (PC))  returns 0x20000000 (0000ms, 0675ms total)
T0E18 002:051 JLINK_ClrBPEx(BPHandle = 0x0000000C)  returns 0x00 (0000ms, 0675ms total)
T0E18 002:051 JLINK_ReadReg(R0)  returns 0x00000000 (0000ms, 0675ms total)
T0E18 002:052 JLINK_WriteMem(0x20000164, 0x029C Bytes, ...) - Data: F8 87 00 00 00 00 11 10 00 10 02 40 00 08 01 40 ... -- CPU_WriteMem(668 bytes @ 0x20000164)  returns 0x29C (0007ms, 0682ms total)
T0E18 002:059 JLINK_WriteMem(0x20000400, 0x0164 Bytes, ...) - Data: 40 70 61 68 08 43 0F 49 08 62 20 78 00 F0 02 00 ... -- CPU_WriteMem(356 bytes @ 0x20000400)  returns 0x164 (0004ms, 0686ms total)
T0E18 002:063 JLINK_WriteReg(R0, 0x08002000)  returns 0x00 (0000ms, 0686ms total)
T0E18 002:063 JLINK_WriteReg(R1, 0x00000400)  returns 0x00 (0000ms, 0686ms total)
T0E18 002:063 JLINK_WriteReg(R2, 0x20000164)  returns 0x00 (0000ms, 0686ms total)
T0E18 002:063 JLINK_WriteReg(R3, 0x00000000)  returns 0x00 (0000ms, 0686ms total)
T0E18 002:063 JLINK_WriteReg(R4, 0x00000000)  returns 0x00 (0000ms, 0686ms total)
T0E18 002:063 JLINK_WriteReg(R5, 0x00000000)  returns 0x00 (0000ms, 0686ms total)
T0E18 002:063 JLINK_WriteReg(R6, 0x00000000)  returns 0x00 (0000ms, 0686ms total)
T0E18 002:063 JLINK_WriteReg(R7, 0x00000000)  returns 0x00 (0000ms, 0686ms total)
T0E18 002:063 JLINK_WriteReg(R8, 0x00000000)  returns 0x00 (0000ms, 0686ms total)
T0E18 002:063 JLINK_WriteReg(R9, 0x20000160)  returns 0x00 (0000ms, 0686ms total)
T0E18 002:063 JLINK_WriteReg(R10, 0x00000000)  returns 0x00 (0000ms, 0686ms total)
T0E18 002:063 JLINK_WriteReg(R11, 0x00000000)  returns 0x00 (0000ms, 0686ms total)
T0E18 002:063 JLINK_WriteReg(R12, 0x00000000)  returns 0x00 (0000ms, 0686ms total)
T0E18 002:063 JLINK_WriteReg(R13 (SP), 0x20001000)  returns 0x00 (0000ms, 0686ms total)
T0E18 002:063 JLINK_WriteReg(R14, 0x20000001)  returns 0x00 (0000ms, 0686ms total)
T0E18 002:063 JLINK_WriteReg(R15 (PC), 0x200000F4)  returns 0x00 (0000ms, 0686ms total)
T0E18 002:063 JLINK_WriteReg(XPSR, 0x01000000)  returns 0x00 (0000ms, 0686ms total)
T0E18 002:063 JLINK_WriteReg(MSP, 0x20001000)  returns 0x00 (0000ms, 0686ms total)
T0E18 002:063 JLINK_WriteReg(PSP, 0x20001000)  returns 0x00 (0000ms, 0686ms total)
T0E18 002:063 JLINK_WriteReg(CFBP, 0x00000000)  returns 0x00 (0000ms, 0686ms total)
T0E18 002:063 JLINK_SetBPEx(Addr = 0x20000000, Type = 0xFFFFFFF2)  returns 0x0000000D (0000ms, 0686ms total)
T0E18 002:063 JLINK_Go() -- CPU_ReadMem(4 bytes @ 0xE0001000) (0004ms, 0690ms total)
T0E18 002:067 JLINK_IsHalted()  returns FALSE (0001ms, 0691ms total)
T0E18 002:070 JLINK_IsHalted()  returns FALSE (0000ms, 0690ms total)
